
T423C 000:283 SEGGER J-Link V5.12g Log File (0000ms, 0265ms total)
T423C 000:283 DLL Compiled: May 27 2016 16:57:47 (0000ms, 0265ms total)
T423C 000:283 Logging started @ 2023-09-17 16:08 (0000ms, 0265ms total)
T423C 000:283 JLINK_SetWarnOutHandler(...) (0000ms, 0265ms total)
T423C 000:283 JLINK_OpenEx(...)
Firmware: J-Link ARM-OB STM32 compiled Aug 22 2012 19:52:04
Hardware: V7.00
S/N: 20090928
Feature(s): RDI,FlashDL,FlashBP,JFlash,GDBFull  returns O.K. (0262ms, 0527ms total)
T423C 000:545 JLINK_SetErrorOutHandler(...) (0000ms, 0527ms total)
T423C 000:545 JLINK_ExecCommand("ProjectFile = "C:\Users\TC\Desktop\TC_Repository\TC_Repository\2024_RPS_TEMPLATE\USER\JLinkSettings.ini"", ...)Device "STM32F405RG" selected.  returns 0x00 (0000ms, 0527ms total)
T423C 000:545 JLINK_ExecCommand("Device = STM32F405RGTx", ...)Device "STM32F405RG" selected.  returns 0x00 (0001ms, 0528ms total)
T423C 000:546 JLINK_ExecCommand("DisableConnectionTimeout", ...)  returns 0x01 (0000ms, 0528ms total)
T423C 000:546 JLINK_GetHardwareVersion()  returns 0x11170 (0000ms, 0528ms total)
T423C 000:546 JLINK_GetDLLVersion()  returns 51207 (0000ms, 0528ms total)
T423C 000:546 JLINK_GetFirmwareString(...) (0000ms, 0528ms total)
T423C 000:546 JLINK_GetDLLVersion()  returns 51207 (0000ms, 0528ms total)
T423C 000:546 JLINK_GetCompileDateTime() (0000ms, 0528ms total)
T423C 000:546 JLINK_GetFirmwareString(...) (0000ms, 0528ms total)
T423C 000:546 JLINK_GetHardwareVersion()  returns 0x11170 (0000ms, 0528ms total)
T423C 000:546 JLINK_TIF_Select(JLINKARM_TIF_SWD)  returns 0x00 (0001ms, 0529ms total)
T423C 000:547 JLINK_SetSpeed(5000) (0001ms, 0530ms total)
T423C 000:548 JLINK_GetId() >0x108 TIF> >0x108 TIF> >0x108 TIF>Found SWD-DP with ID 0x2BA01477 >0x0D TIF> >0x28 TIF> >0x0D TIF> >0x28 TIF>SWD speed too high. Reduced from 4000 kHz to 2700 kHz for stability >0x0D TIF> >0x28 TIF> >0x0D TIF> >0x28 TIF> >0x0D TIF> >0x21 TIF> >0x0D TIF> >0x28 TIF> >0x0D TIF> >0x28 TIF> >0x0D TIF> >0x28 TIF> >0x0D TIF> >0x21 TIF> >0x0D TIF> >0x21 TIF> >0x0D TIF> >0x28 TIF> >0x0D TIF> >0x21 TIF> >0x0D TIF> >0x21 TIF> >0x0D TIF> >0x28 TIF> >0x0D TIF> >0x21 TIF> >0x0D TIF>
 >0x21 TIF> >0x0D TIF> >0x28 TIF> >0x0D TIF> >0x21 TIF> >0x0D TIF> >0x21 TIF> >0x0D TIF> >0x28 TIF> >0x0D TIF> >0x21 TIF> >0x0D TIF> >0x21 TIF> >0x0D TIF> >0x28 TIF> >0x0D TIF> >0x21 TIF> >0x0D TIF> >0x21 TIF> >0x0D TIF> >0x28 TIF> >0x0D TIF> >0x28 TIF> >0x0D TIF> >0x28 TIF> >0x0D TIF> >0x28 TIF> >0x0D TIF> >0x28 TIF> >0x0D TIF> >0x21 TIF> >0x0D TIF> >0x21 TIF> >0x0D TIF> >0x28 TIF> >0x0D TIF> >0x28 TIF> >0x108 TIF>Found SWD-DP with ID 0x2BA01477 >0x0D TIF> >0x28 TIF> >0x0D TIF> >0x28 TIF> >0x0D TIF>
 >0x28 TIF> >0x0D TIF> >0x28 TIF> >0x0D TIF> >0x21 TIF> >0x0D TIF> >0x28 TIF> >0x0D TIF> >0x28 TIF> >0x0D TIF> >0x21 TIF> >0x0D TIF> >0x21 TIF> >0x0D TIF> >0x21 TIF> >0x0D TIF> >0x28 TIF> >0x0D TIF> >0x28 TIF> >0x0D TIF> >0x28 TIF> >0x0D TIF> >0x21 TIF> >0x0D TIF> >0x21 TIF> >0x0D TIF> >0x28 TIF> >0x0D TIF> >0x21 TIF> >0x0D TIF> >0x21 TIF>Found Cortex-M4 r0p1, Little endian. -- CPU_ReadMem(4 bytes @ 0xE000EDF0) -- CPU_ReadMem(4 bytes @ 0xE0002000)FPUnit: 6 code (BP) slots and 2 literal slots
 -- CPU_ReadMem(4 bytes @ 0xE000EDFC) -- CPU_ReadMem(4 bytes @ 0xE0001000) -- CPU_WriteMem(4 bytes @ 0xE0001000) -- CPU_ReadMem(4 bytes @ 0xE000ED88) -- CPU_WriteMem(4 bytes @ 0xE000ED88) -- CPU_ReadMem(4 bytes @ 0xE000ED88) -- CPU_WriteMem(4 bytes @ 0xE000ED88)CoreSight components:ROMTbl 0 @ E00FF000 -- CPU_ReadMem(16 bytes @ 0xE00FF000) -- CPU_ReadMem(16 bytes @ 0xE000EFF0) -- CPU_ReadMem(16 bytes @ 0xE000EFE0)ROMTbl 0 [0]: FFF0F000, CID: B105E00D, PID: 000BB00C SCS
 -- CPU_ReadMem(16 bytes @ 0xE0001FF0) -- CPU_ReadMem(16 bytes @ 0xE0001FE0)ROMTbl 0 [1]: FFF02000, CID: B105E00D, PID: 003BB002 DWT -- CPU_ReadMem(16 bytes @ 0xE0002FF0) -- CPU_ReadMem(16 bytes @ 0xE0002FE0)ROMTbl 0 [2]: FFF03000, CID: B105E00D, PID: 002BB003 FPB -- CPU_ReadMem(16 bytes @ 0xE0000FF0) -- CPU_ReadMem(16 bytes @ 0xE0000FE0)ROMTbl 0 [3]: FFF01000, CID: B105E00D, PID: 003BB001 ITM -- CPU_ReadMem(16 bytes @ 0xE00FF010) -- CPU_ReadMem(16 bytes @ 0xE0040FF0)
 -- CPU_ReadMem(16 bytes @ 0xE0040FE0)ROMTbl 0 [4]: FFF41000, CID: B105900D, PID: 000BB9A1 TPIU -- CPU_ReadMem(16 bytes @ 0xE0041FF0) -- CPU_ReadMem(16 bytes @ 0xE0041FE0)ROMTbl 0 [5]: FFF42000, CID: B105900D, PID: 000BB925 ETM >0x0D TIF> >0x21 TIF>  returns 0x2BA01477 (0180ms, 0710ms total)
T423C 000:728 JLINK_GetDLLVersion()  returns 51207 (0000ms, 0710ms total)
T423C 000:728 JLINK_CORE_GetFound()  returns 0xE0000FF (0000ms, 0710ms total)
T423C 000:728 JLINK_GetDebugInfo(0x100) -- Value=0xE00FF000  returns 0x00 (0000ms, 0710ms total)
T423C 000:728 JLINK_GetDebugInfo(0x100) -- Value=0xE00FF000  returns 0x00 (0000ms, 0710ms total)
T423C 000:728 JLINK_GetDebugInfo(0x101) -- Value=0xE0041000  returns 0x00 (0000ms, 0710ms total)
T423C 000:728 JLINK_GetDebugInfo(0x102) -- Value=0x00000000  returns 0x00 (0000ms, 0710ms total)
T423C 000:728 JLINK_GetDebugInfo(0x103) -- Value=0xE0040000  returns 0x00 (0000ms, 0710ms total)
T423C 000:728 JLINK_GetDebugInfo(0x104) -- Value=0xE0000000  returns 0x00 (0000ms, 0710ms total)
T423C 000:728 JLINK_GetDebugInfo(0x105) -- Value=0xE0001000  returns 0x00 (0000ms, 0710ms total)
T423C 000:728 JLINK_GetDebugInfo(0x106) -- Value=0xE0002000  returns 0x00 (0000ms, 0710ms total)
T423C 000:728 JLINK_GetDebugInfo(0x107) -- Value=0xE000E000  returns 0x00 (0000ms, 0710ms total)
T423C 000:728 JLINK_GetDebugInfo(0x10C) -- Value=0xE000EDF0  returns 0x00 (0000ms, 0710ms total)
T423C 000:728 JLINK_ReadMemU32(0xE000EF40, 0x0001 Items, ...) -- CPU is running -- CPU_ReadMem(4 bytes @ 0xE000EF40) - Data: 21 00 11 10  returns 0x01 (0001ms, 0711ms total)
T423C 000:729 JLINK_ReadMemU32(0xE000EF44, 0x0001 Items, ...) -- CPU is running -- CPU_ReadMem(4 bytes @ 0xE000EF44) - Data: 11 00 00 11  returns 0x01 (0001ms, 0712ms total)
T423C 000:730 JLINK_ReadMemU32(0xE000ED00, 0x0001 Items, ...) -- CPU is running -- CPU_ReadMem(4 bytes @ 0xE000ED00) - Data: 41 C2 0F 41  returns 0x01 (0001ms, 0713ms total)
T423C 000:731 JLINK_SetResetType(JLINKARM_RESET_TYPE_NORMAL)  returns JLINKARM_RESET_TYPE_NORMAL (0000ms, 0713ms total)
T423C 000:731 JLINK_Reset() -- CPU is running -- CPU_WriteMem(4 bytes @ 0xE000EDF0) -- CPU is running -- CPU_WriteMem(4 bytes @ 0xE000EDFC) >0x35 TIF> -- CPU is running -- CPU_WriteMem(4 bytes @ 0xE000ED0C) -- CPU is running -- CPU_ReadMem(4 bytes @ 0xE000EDF0) -- CPU is running -- CPU_ReadMem(4 bytes @ 0xE000EDF0) -- CPU is running -- CPU_ReadMem(4 bytes @ 0xE000EDF0) -- CPU is running -- CPU_ReadMem(4 bytes @ 0xE000EDF0) -- CPU is running -- CPU_ReadMem(4 bytes @ 0xE000EDF0) -- CPU is running
 -- CPU_ReadMem(4 bytes @ 0xE000EDF0) -- CPU is running -- CPU_ReadMem(4 bytes @ 0xE000EDF0) -- CPU is running -- CPU_ReadMem(4 bytes @ 0xE000EDF0) -- CPU is running -- CPU_ReadMem(4 bytes @ 0xE000EDF0) -- CPU is running -- CPU_ReadMem(4 bytes @ 0xE000EDF0) -- CPU is running -- CPU_ReadMem(4 bytes @ 0xE000EDF0) -- CPU is running -- CPU_ReadMem(4 bytes @ 0xE000EDF0) -- CPU is running -- CPU_ReadMem(4 bytes @ 0xE000EDF0) -- CPU is running -- CPU_ReadMem(4 bytes @ 0xE000EDF0) -- CPU is running
 -- CPU_ReadMem(4 bytes @ 0xE000EDF0) -- CPU is running -- CPU_ReadMem(4 bytes @ 0xE000EDF0) -- CPU is running -- CPU_WriteMem(4 bytes @ 0xE000EDF0) -- CPU is running -- CPU_WriteMem(4 bytes @ 0xE000EDFC) -- CPU is running -- CPU_ReadMem(4 bytes @ 0xE000EDF0) -- CPU_WriteMem(4 bytes @ 0xE0002000) -- CPU_ReadMem(4 bytes @ 0xE000EDFC) -- CPU_ReadMem(4 bytes @ 0xE0001000) (0031ms, 0744ms total)
T423C 000:762 JLINK_ReadReg(R15 (PC))  returns 0x08003018 (0000ms, 0744ms total)
T423C 000:762 JLINK_ReadReg(XPSR)  returns 0x01000000 (0000ms, 0744ms total)
T423C 000:762 JLINK_Halt()  returns 0x00 (0000ms, 0744ms total)
T423C 000:762 JLINK_IsHalted()  returns TRUE (0000ms, 0744ms total)
T423C 000:762 JLINK_ReadMemU32(0xE000EDF0, 0x0001 Items, ...) -- CPU_ReadMem(4 bytes @ 0xE000EDF0) - Data: 03 00 03 00  returns 0x01 (0000ms, 0744ms total)
T423C 000:762 JLINK_WriteU32(0xE000EDF0, 0xA05F0003) -- CPU_WriteMem(4 bytes @ 0xE000EDF0)  returns 0x00 (0002ms, 0746ms total)
T423C 000:764 JLINK_WriteU32(0xE000EDFC, 0x01000000) -- CPU_WriteMem(4 bytes @ 0xE000EDFC)  returns 0x00 (0000ms, 0746ms total)
T423C 000:764 JLINK_GetHWStatus(...)  returns 0x00 (0001ms, 0747ms total)
T423C 000:765 JLINK_GetNumBPUnits(Type = 0xFFFFFF00)  returns 0x06 (0000ms, 0747ms total)
T423C 000:765 JLINK_GetNumBPUnits(Type = 0xF0)  returns 0x2000 (0000ms, 0747ms total)
T423C 000:765 JLINK_GetNumWPUnits()  returns 0x04 (0000ms, 0747ms total)
T423C 000:765 JLINK_GetSpeed()  returns 0xA6B (0000ms, 0747ms total)
T423C 000:765 JLINK_ReadMemU32(0xE000E004, 0x0001 Items, ...) -- CPU_ReadMem(4 bytes @ 0xE000E004) - Data: 02 00 00 00  returns 0x01 (0000ms, 0747ms total)
T423C 000:765 JLINK_ReadMemU32(0xE000E004, 0x0001 Items, ...) -- CPU_ReadMem(4 bytes @ 0xE000E004) - Data: 02 00 00 00  returns 0x01 (0002ms, 0749ms total)
T423C 000:767 JLINK_WriteMem(0xE0001000, 0x001C Bytes, ...) - Data: 01 00 00 00 00 00 00 00 00 00 00 00 00 00 00 00 ... -- CPU_WriteMem(28 bytes @ 0xE0001000)  returns 0x1C (0000ms, 0749ms total)
T423C 000:767 JLINK_ReadMem (0xE0001000, 0x001C Bytes, ...) -- CPU_ReadMem(28 bytes @ 0xE0001000) - Data: 01 00 00 40 00 00 00 00 00 00 00 00 00 00 00 00 ...  returns 0x00 (0002ms, 0751ms total)
T423C 000:769 JLINK_ReadReg(R15 (PC))  returns 0x08003018 (0000ms, 0751ms total)
T423C 000:769 JLINK_ReadReg(XPSR)  returns 0x01000000 (0000ms, 0751ms total)
T423C 000:835 JLINK_SetResetType(JLINKARM_RESET_TYPE_NORMAL)  returns JLINKARM_RESET_TYPE_NORMAL (0000ms, 0751ms total)
T423C 000:835 JLINK_Reset() -- CPU_WriteMem(4 bytes @ 0xE000EDF0) -- CPU_WriteMem(4 bytes @ 0xE000EDFC) >0x35 TIF> -- CPU_WriteMem(4 bytes @ 0xE000ED0C) -- CPU_ReadMem(4 bytes @ 0xE000EDF0) -- CPU_ReadMem(4 bytes @ 0xE000EDF0) -- CPU_WriteMem(4 bytes @ 0xE000EDF0) -- CPU_WriteMem(4 bytes @ 0xE000EDFC) -- CPU is running -- CPU_ReadMem(4 bytes @ 0xE000EDF0) -- CPU_WriteMem(4 bytes @ 0xE0002000) -- CPU_ReadMem(4 bytes @ 0xE000EDFC) -- CPU_ReadMem(4 bytes @ 0xE0001000) (0023ms, 0774ms total)
T423C 000:858 JLINK_ReadReg(R15 (PC))  returns 0x08003018 (0000ms, 0774ms total)
T423C 000:858 JLINK_ReadReg(XPSR)  returns 0x01000000 (0000ms, 0774ms total)
T423C 000:858 JLINK_ReadMem (0x08003018, 0x003C Bytes, ...) -- CPU_ReadMem(128 bytes @ 0x08003000) -- Updating C cache (128 bytes @ 0x08003000) -- Read from C cache (60 bytes @ 0x08003018) - Data: 09 48 80 47 09 48 00 47 FE E7 FE E7 FE E7 FE E7 ...  returns 0x00 (0003ms, 0777ms total)
T3320 001:742 JLINK_SetBPEx(Addr = 0x08000226, Type = 0xFFFFFFF2)  returns 0x00000001 (0000ms, 0777ms total)
T3320 001:742 JLINK_Go() -- CPU_WriteMem(4 bytes @ 0xE0002000) -- CPU_ReadMem(4 bytes @ 0xE0001000) -- CPU_WriteMem(4 bytes @ 0xE0002008) -- CPU_WriteMem(4 bytes @ 0xE000200C) -- CPU_WriteMem(4 bytes @ 0xE0002010) -- CPU_WriteMem(4 bytes @ 0xE0002014) -- CPU_WriteMem(4 bytes @ 0xE0002018) -- CPU_WriteMem(4 bytes @ 0xE000201C) -- CPU_WriteMem(4 bytes @ 0xE0001004) (0007ms, 0784ms total)
T3320 001:850 JLINK_IsHalted()  returns TRUE (0003ms, 0787ms total)
T3320 001:853 JLINK_Halt()  returns 0x00 (0000ms, 0784ms total)
T3320 001:853 JLINK_IsHalted()  returns TRUE (0000ms, 0784ms total)
T3320 001:853 JLINK_IsHalted()  returns TRUE (0000ms, 0784ms total)
T3320 001:853 JLINK_IsHalted()  returns TRUE (0000ms, 0784ms total)
T3320 001:853 JLINK_ReadReg(R15 (PC))  returns 0x08000226 (0000ms, 0784ms total)
T3320 001:853 JLINK_ReadReg(XPSR)  returns 0x21000000 (0000ms, 0784ms total)
T3320 001:853 JLINK_ClrBPEx(BPHandle = 0x00000001)  returns 0x00 (0000ms, 0784ms total)
T3320 001:853 JLINK_ReadMemU32(0xE000ED30, 0x0001 Items, ...) -- CPU_ReadMem(4 bytes @ 0xE000ED30) - Data: 03 00 00 00  returns 0x01 (0001ms, 0785ms total)
T3320 001:854 JLINK_ReadMemU32(0xE0001028, 0x0001 Items, ...) -- CPU_ReadMem(4 bytes @ 0xE0001028) - Data: 00 00 00 00  returns 0x01 (0001ms, 0786ms total)
T3320 001:855 JLINK_ReadMemU32(0xE0001038, 0x0001 Items, ...) -- CPU_ReadMem(4 bytes @ 0xE0001038) - Data: 00 02 00 00  returns 0x01 (0001ms, 0787ms total)
T3320 001:856 JLINK_ReadMemU32(0xE0001048, 0x0001 Items, ...) -- CPU_ReadMem(4 bytes @ 0xE0001048) - Data: 00 00 00 00  returns 0x01 (0000ms, 0787ms total)
T3320 001:856 JLINK_ReadMemU32(0xE0001058, 0x0001 Items, ...) -- CPU_ReadMem(4 bytes @ 0xE0001058) - Data: 00 00 00 00  returns 0x01 (0001ms, 0788ms total)
T3320 001:857 JLINK_ReadReg(R0)  returns 0x200007C0 (0000ms, 0788ms total)
T3320 001:857 JLINK_ReadReg(R1)  returns 0x200009C0 (0000ms, 0788ms total)
T3320 001:857 JLINK_ReadReg(R2)  returns 0x200009C0 (0000ms, 0788ms total)
T3320 001:857 JLINK_ReadReg(R3)  returns 0x200009C0 (0000ms, 0788ms total)
T3320 001:857 JLINK_ReadReg(R4)  returns 0x00000000 (0000ms, 0788ms total)
T3320 001:857 JLINK_ReadReg(R5)  returns 0x20000760 (0000ms, 0788ms total)
T3320 001:857 JLINK_ReadReg(R6)  returns 0x00000000 (0000ms, 0788ms total)
T3320 001:857 JLINK_ReadReg(R7)  returns 0x00000000 (0000ms, 0788ms total)
T3320 001:857 JLINK_ReadReg(R8)  returns 0x00000000 (0000ms, 0788ms total)
T3320 001:857 JLINK_ReadReg(R9)  returns 0x00000000 (0000ms, 0788ms total)
T3320 001:857 JLINK_ReadReg(R10)  returns 0x080030F4 (0000ms, 0788ms total)
T3320 001:857 JLINK_ReadReg(R11)  returns 0x00000000 (0000ms, 0788ms total)
T3320 001:857 JLINK_ReadReg(R12)  returns 0x200007A0 (0000ms, 0788ms total)
T3320 001:857 JLINK_ReadReg(R13 (SP))  returns 0x20000DC0 (0000ms, 0788ms total)
T3320 001:857 JLINK_ReadReg(R14)  returns 0x08000217 (0000ms, 0788ms total)
T3320 001:857 JLINK_ReadReg(R15 (PC))  returns 0x08000226 (0000ms, 0788ms total)
T3320 001:857 JLINK_ReadReg(XPSR)  returns 0x21000000 (0000ms, 0788ms total)
T3320 001:857 JLINK_ReadReg(MSP)  returns 0x20000DC0 (0000ms, 0788ms total)
T3320 001:857 JLINK_ReadReg(PSP)  returns 0x00000000 (0000ms, 0788ms total)
T3320 001:857 JLINK_ReadReg(CFBP)  returns 0x04000000 (0000ms, 0788ms total)
T3320 001:857 JLINK_ReadReg(FPSCR)  returns 0x03000000 (0006ms, 0794ms total)
T3320 001:863 JLINK_ReadReg(FPS0)  returns 0x00000000 (0000ms, 0794ms total)
T3320 001:863 JLINK_ReadReg(FPS1)  returns 0x00000000 (0000ms, 0794ms total)
T3320 001:863 JLINK_ReadReg(FPS2)  returns 0x00000000 (0000ms, 0794ms total)
T3320 001:863 JLINK_ReadReg(FPS3)  returns 0x00000000 (0000ms, 0794ms total)
T3320 001:863 JLINK_ReadReg(FPS4)  returns 0x00000000 (0000ms, 0794ms total)
T3320 001:863 JLINK_ReadReg(FPS5)  returns 0x00000000 (0000ms, 0794ms total)
T3320 001:863 JLINK_ReadReg(FPS6)  returns 0x00000000 (0000ms, 0794ms total)
T3320 001:863 JLINK_ReadReg(FPS7)  returns 0x00000000 (0000ms, 0794ms total)
T3320 001:863 JLINK_ReadReg(FPS8)  returns 0x00000000 (0000ms, 0794ms total)
T3320 001:863 JLINK_ReadReg(FPS9)  returns 0x00000000 (0000ms, 0794ms total)
T3320 001:863 JLINK_ReadReg(FPS10)  returns 0x00000000 (0000ms, 0794ms total)
T3320 001:863 JLINK_ReadReg(FPS11)  returns 0x00000000 (0000ms, 0794ms total)
T3320 001:863 JLINK_ReadReg(FPS12)  returns 0x00000000 (0000ms, 0794ms total)
T3320 001:863 JLINK_ReadReg(FPS13)  returns 0x00000000 (0000ms, 0794ms total)
T3320 001:863 JLINK_ReadReg(FPS14)  returns 0x00000000 (0000ms, 0794ms total)
T3320 001:863 JLINK_ReadReg(FPS15)  returns 0x00000000 (0000ms, 0794ms total)
T3320 001:863 JLINK_ReadReg(FPS16)  returns 0x00000000 (0000ms, 0794ms total)
T3320 001:863 JLINK_ReadReg(FPS17)  returns 0x00000000 (0000ms, 0794ms total)
T3320 001:863 JLINK_ReadReg(FPS18)  returns 0x00000000 (0000ms, 0794ms total)
T3320 001:863 JLINK_ReadReg(FPS19)  returns 0x00000000 (0000ms, 0794ms total)
T3320 001:863 JLINK_ReadReg(FPS20)  returns 0x00000000 (0000ms, 0794ms total)
T3320 001:863 JLINK_ReadReg(FPS21)  returns 0x00000000 (0000ms, 0794ms total)
T3320 001:863 JLINK_ReadReg(FPS22)  returns 0x00000000 (0000ms, 0794ms total)
T3320 001:863 JLINK_ReadReg(FPS23)  returns 0x00000000 (0000ms, 0794ms total)
T3320 001:863 JLINK_ReadReg(FPS24)  returns 0x00000000 (0000ms, 0794ms total)
T3320 001:863 JLINK_ReadReg(FPS25)  returns 0x00000000 (0000ms, 0794ms total)
T3320 001:863 JLINK_ReadReg(FPS26)  returns 0x00000000 (0000ms, 0794ms total)
T3320 001:863 JLINK_ReadReg(FPS27)  returns 0x00000000 (0000ms, 0794ms total)
T3320 001:863 JLINK_ReadReg(FPS28)  returns 0x00000000 (0000ms, 0794ms total)
T3320 001:863 JLINK_ReadReg(FPS29)  returns 0x00000000 (0000ms, 0794ms total)
T3320 001:863 JLINK_ReadReg(FPS30)  returns 0x00000000 (0000ms, 0794ms total)
T3320 001:863 JLINK_ReadReg(FPS31)  returns 0x00000000 (0000ms, 0794ms total)
T423C 001:866 JLINK_ReadMem (0x08000226, 0x0002 Bytes, ...) -- CPU_ReadMem(64 bytes @ 0x08000200) -- Updating C cache (64 bytes @ 0x08000200) -- Read from C cache (2 bytes @ 0x08000226) - Data: 00 F0  returns 0x00 (0003ms, 0797ms total)
T423C 001:869 JLINK_ReadMem (0x08000228, 0x003C Bytes, ...) -- CPU_ReadMem(64 bytes @ 0x08000240) -- Updating C cache (64 bytes @ 0x08000240) -- Read from C cache (60 bytes @ 0x08000228) - Data: 17 F9 00 BF FE E7 70 47 00 BF FE E7 00 BF FE E7 ...  returns 0x00 (0001ms, 0798ms total)
T423C 005:717 JLINK_ReadMem (0x08000188, 0x003C Bytes, ...) -- CPU_ReadMem(128 bytes @ 0x08000180) -- Updating C cache (128 bytes @ 0x08000180) -- Read from C cache (60 bytes @ 0x08000188) - Data: 00 F0 02 F8 00 F0 3C F8 0A A0 90 E8 00 0C 82 44 ...  returns 0x00 (0002ms, 0800ms total)
T423C 005:719 JLINK_ReadMem (0x080001C4, 0x003C Bytes, ...) -- Read from C cache (60 bytes @ 0x080001C4) - Data: 10 3A 24 BF 78 C8 78 C1 FA D8 52 07 24 BF 30 C8 ...  returns 0x00 (0000ms, 0800ms total)
T423C 005:719 JLINK_ReadMem (0x08000200, 0x003C Bytes, ...) -- Read from C cache (60 bytes @ 0x08000200) - Data: 63 FF 1F BD 10 B5 10 BD 02 F0 30 FF 11 46 FF F7 ...  returns 0x00 (0000ms, 0800ms total)
T423C 008:088 JLINK_ReadMem (0x08000458, 0x003C Bytes, ...) -- CPU_ReadMem(128 bytes @ 0x08000440) -- Updating C cache (128 bytes @ 0x08000440) -- Read from C cache (60 bytes @ 0x08000458) - Data: 10 B5 4F F4 A0 60 00 F0 FD FF 4F F4 E1 30 00 F0 ...  returns 0x00 (0003ms, 0803ms total)
T3320 010:841 JLINK_Go() -- CPU_ReadMem(4 bytes @ 0xE0001000) -- CPU_WriteMem(4 bytes @ 0xE0002008) (0003ms, 0806ms total)
T3320 010:945 JLINK_IsHalted()  returns FALSE (0000ms, 0806ms total)
T3320 011:046 JLINK_IsHalted()  returns FALSE (0001ms, 0807ms total)
T3320 011:148 JLINK_IsHalted()  returns FALSE (0001ms, 0807ms total)
T3320 011:250 JLINK_IsHalted()  returns FALSE (0001ms, 0807ms total)
T3320 011:351 JLINK_ReadMemU32(0xE0001004, 0x0001 Items, ...) -- CPU is running -- CPU_ReadMem(4 bytes @ 0xE0001004) - Data: 00 03 00 00  returns 0x01 (0000ms, 0806ms total)
T3320 011:353 JLINK_IsHalted()  returns FALSE (0001ms, 0807ms total)
T3320 011:454 JLINK_IsHalted()  returns FALSE (0001ms, 0807ms total)
T3320 011:555 JLINK_IsHalted()  returns FALSE (0001ms, 0807ms total)
T3320 011:657 JLINK_IsHalted()  returns FALSE (0001ms, 0807ms total)
T3320 011:758 JLINK_IsHalted()  returns FALSE (0001ms, 0807ms total)
T3320 011:860 JLINK_IsHalted()  returns FALSE (0000ms, 0806ms total)
T3320 011:961 JLINK_ReadMemU32(0xE0001004, 0x0001 Items, ...) -- CPU is running -- CPU_ReadMem(4 bytes @ 0xE0001004) - Data: 5F 4A EA 08  returns 0x01 (0000ms, 0806ms total)
T3320 011:964 JLINK_IsHalted()  returns FALSE (0001ms, 0807ms total)
T3320 012:066 JLINK_IsHalted()  returns FALSE (0001ms, 0807ms total)
T3320 012:168 JLINK_IsHalted()  returns FALSE (0001ms, 0807ms total)
T3320 012:269 JLINK_IsHalted()  returns FALSE (0001ms, 0807ms total)
T3320 012:370 JLINK_IsHalted()  returns FALSE (0001ms, 0807ms total)
T3320 012:472 JLINK_IsHalted()  returns FALSE (0001ms, 0807ms total)
T3320 012:573 JLINK_ReadMemU32(0xE0001004, 0x0001 Items, ...) -- CPU is running -- CPU_ReadMem(4 bytes @ 0xE0001004) - Data: 80 01 00 08  returns 0x01 (0001ms, 0807ms total)
T3320 012:578 JLINK_IsHalted()  returns FALSE (0001ms, 0808ms total)
T3320 012:679 JLINK_IsHalted()  returns FALSE (0001ms, 0808ms total)
T3320 012:781 JLINK_IsHalted()  returns FALSE (0001ms, 0808ms total)
T3320 012:883 JLINK_IsHalted()  returns FALSE (0001ms, 0808ms total)
T3320 012:984 JLINK_IsHalted()  returns FALSE (0001ms, 0808ms total)
T3320 013:085 JLINK_ReadMemU32(0xE0001004, 0x0001 Items, ...) -- CPU is running -- CPU_ReadMem(4 bytes @ 0xE0001004) - Data: C0 01 00 00  returns 0x01 (0001ms, 0808ms total)
T3320 013:090 JLINK_IsHalted()  returns FALSE (0002ms, 0810ms total)
T3320 013:193 JLINK_IsHalted()  returns FALSE (0000ms, 0808ms total)
T3320 013:294 JLINK_IsHalted()  returns FALSE (0001ms, 0809ms total)
T3320 013:395 JLINK_IsHalted()  returns FALSE (0001ms, 0809ms total)
T3320 013:496 JLINK_IsHalted()  returns FALSE (0000ms, 0808ms total)
T3320 013:597 JLINK_ReadMemU32(0xE0001004, 0x0001 Items, ...) -- CPU is running -- CPU_ReadMem(4 bytes @ 0xE0001004) - Data: 00 40 04 04  returns 0x01 (0001ms, 0809ms total)
T3320 013:602 JLINK_IsHalted()  returns FALSE (0000ms, 0809ms total)
T3320 013:703 JLINK_IsHalted()  returns FALSE (0001ms, 0810ms total)
T3320 013:804 JLINK_IsHalted()  returns FALSE (0001ms, 0810ms total)
T3320 013:906 JLINK_IsHalted()  returns FALSE (0001ms, 0810ms total)
T3320 014:007 JLINK_IsHalted()  returns FALSE (0001ms, 0810ms total)
T3320 014:108 JLINK_IsHalted()  returns FALSE (0001ms, 0810ms total)
T3320 014:209 JLINK_ReadMemU32(0xE0001004, 0x0001 Items, ...) -- CPU is running -- CPU_ReadMem(4 bytes @ 0xE0001004) - Data: 00 06 04 00  returns 0x01 (0001ms, 0810ms total)
T3320 014:210 JLINK_IsHalted()  returns FALSE (0002ms, 0812ms total)
T3320 014:313 JLINK_IsHalted()  returns FALSE (0000ms, 0810ms total)
T3320 014:414 JLINK_IsHalted()  returns FALSE (0001ms, 0811ms total)
T3320 014:515 JLINK_IsHalted()  returns FALSE (0001ms, 0811ms total)
T3320 014:616 JLINK_IsHalted()  returns FALSE (0001ms, 0811ms total)
T3320 014:718 JLINK_IsHalted()  returns FALSE (0001ms, 0811ms total)
T3320 014:819 JLINK_ReadMemU32(0xE0001004, 0x0001 Items, ...) -- CPU is running -- CPU_ReadMem(4 bytes @ 0xE0001004) - Data: 97 A9 E5 22  returns 0x01 (0001ms, 0811ms total)
T3320 014:821 JLINK_IsHalted()  returns FALSE (0000ms, 0811ms total)
T3320 014:922 JLINK_IsHalted()  returns FALSE (0000ms, 0811ms total)
T3320 015:023 JLINK_IsHalted()  returns FALSE (0000ms, 0811ms total)
T3320 015:125 JLINK_IsHalted()  returns FALSE (0000ms, 0811ms total)
T3320 015:226 JLINK_IsHalted()  returns FALSE (0001ms, 0812ms total)
T3320 015:328 JLINK_IsHalted()  returns FALSE (0001ms, 0812ms total)
T3320 015:429 JLINK_ReadMemU32(0xE0001004, 0x0001 Items, ...) -- CPU is running -- CPU_ReadMem(4 bytes @ 0xE0001004) - Data: 00 7C 00 00  returns 0x01 (0001ms, 0812ms total)
T3320 015:433 JLINK_IsHalted()  returns FALSE (0001ms, 0813ms total)
T3320 015:535 JLINK_IsHalted()  returns FALSE (0000ms, 0812ms total)
T3320 015:636 JLINK_IsHalted()  returns FALSE (0001ms, 0813ms total)
T3320 015:737 JLINK_IsHalted()  returns FALSE (0001ms, 0813ms total)
T3320 015:839 JLINK_IsHalted()  returns FALSE (0001ms, 0813ms total)
T3320 015:941 JLINK_IsHalted()  returns FALSE (0000ms, 0812ms total)
T3320 016:042 JLINK_ReadMemU32(0xE0001004, 0x0001 Items, ...) -- CPU is running -- CPU_ReadMem(4 bytes @ 0xE0001004) - Data: 1C FF 01 00  returns 0x01 (0002ms, 0814ms total)
T3320 016:045 JLINK_IsHalted()  returns FALSE (0001ms, 0815ms total)
T3320 016:146 JLINK_IsHalted()  returns FALSE (0001ms, 0815ms total)
T3320 016:248 JLINK_IsHalted()  returns FALSE (0001ms, 0815ms total)
T3320 016:349 JLINK_IsHalted()  returns FALSE (0001ms, 0815ms total)
T3320 016:450 JLINK_IsHalted()  returns FALSE (0000ms, 0814ms total)
T3320 016:551 JLINK_ReadMemU32(0xE0001004, 0x0001 Items, ...) -- CPU is running -- CPU_ReadMem(4 bytes @ 0xE0001004) - Data: 00 00 00 00  returns 0x01 (0002ms, 0816ms total)
T3320 016:555 JLINK_IsHalted()  returns FALSE (0001ms, 0817ms total)
T3320 016:657 JLINK_IsHalted()  returns FALSE (0001ms, 0817ms total)
T3320 016:759 JLINK_IsHalted()  returns FALSE (0001ms, 0817ms total)
T3320 016:860 JLINK_IsHalted()  returns FALSE (0001ms, 0817ms total)
T3320 016:962 JLINK_IsHalted()  returns FALSE (0000ms, 0816ms total)
T3320 017:064 JLINK_IsHalted()  returns FALSE (0001ms, 0817ms total)
T3320 017:165 JLINK_ReadMemU32(0xE0001004, 0x0001 Items, ...) -- CPU is running -- CPU_ReadMem(4 bytes @ 0xE0001004) - Data: A5 8E 63 38  returns 0x01 (0001ms, 0817ms total)
T3320 017:169 JLINK_IsHalted()  returns FALSE (0001ms, 0818ms total)
T3320 017:271 JLINK_IsHalted()  returns FALSE (0001ms, 0818ms total)
T3320 017:373 JLINK_IsHalted()  returns FALSE (0001ms, 0818ms total)
T3320 017:474 JLINK_IsHalted()  returns FALSE (0001ms, 0818ms total)
T3320 017:575 JLINK_IsHalted()  returns FALSE (0001ms, 0818ms total)
T3320 017:676 JLINK_ReadMemU32(0xE0001004, 0x0001 Items, ...) -- CPU is running -- CPU_ReadMem(4 bytes @ 0xE0001004) - Data: 1C 00 00 00  returns 0x01 (0001ms, 0818ms total)
T3320 017:682 JLINK_IsHalted()  returns FALSE (0001ms, 0819ms total)
T3320 017:783 JLINK_IsHalted()  returns FALSE (0001ms, 0819ms total)
T3320 017:884 JLINK_IsHalted()  returns FALSE (0001ms, 0819ms total)
T3320 017:986 JLINK_IsHalted()  returns FALSE (0001ms, 0819ms total)
T3320 018:087 JLINK_IsHalted()  returns FALSE (0001ms, 0819ms total)
T3320 018:189 JLINK_IsHalted()  returns FALSE (0001ms, 0819ms total)
T3320 018:291 JLINK_ReadMemU32(0xE0001004, 0x0001 Items, ...) -- CPU is running -- CPU_ReadMem(4 bytes @ 0xE0001004) - Data: 00 47 00 00  returns 0x01 (0001ms, 0819ms total)
T3320 018:293 JLINK_IsHalted()  returns FALSE (0001ms, 0820ms total)
T3320 018:394 JLINK_IsHalted()  returns FALSE (0001ms, 0820ms total)
T3320 018:496 JLINK_IsHalted()  returns FALSE (0001ms, 0820ms total)
T3320 018:597 JLINK_IsHalted()  returns FALSE (0000ms, 0819ms total)
T3320 018:699 JLINK_IsHalted()  returns FALSE (0001ms, 0820ms total)
T3320 018:800 JLINK_IsHalted()  returns FALSE (0001ms, 0820ms total)
T3320 018:902 JLINK_ReadMemU32(0xE0001004, 0x0001 Items, ...) -- CPU is running -- CPU_ReadMem(4 bytes @ 0xE0001004) - Data: 00 00 00 00  returns 0x01 (0001ms, 0820ms total)
T3320 018:904 JLINK_IsHalted()  returns FALSE (0001ms, 0821ms total)
T3320 019:005 JLINK_IsHalted()  returns FALSE (0001ms, 0821ms total)
T3320 019:106 JLINK_IsHalted()  returns FALSE (0001ms, 0821ms total)
T3320 019:207 JLINK_IsHalted()  returns FALSE (0001ms, 0821ms total)
T3320 019:308 JLINK_IsHalted()  returns FALSE (0001ms, 0821ms total)
T3320 019:410 JLINK_IsHalted()  returns FALSE (0001ms, 0821ms total)
T3320 019:511 JLINK_ReadMemU32(0xE0001004, 0x0001 Items, ...) -- CPU is running -- CPU_ReadMem(4 bytes @ 0xE0001004) - Data: 40 00 00 0C  returns 0x01 (0001ms, 0821ms total)
T3320 019:516 JLINK_IsHalted()  returns FALSE (0000ms, 0821ms total)
T3320 019:617 JLINK_IsHalted()  returns FALSE (0001ms, 0822ms total)
T3320 019:719 JLINK_IsHalted()  returns FALSE (0001ms, 0822ms total)
T3320 019:820 JLINK_IsHalted()  returns FALSE (0001ms, 0822ms total)
T3320 019:921 JLINK_IsHalted()  returns FALSE (0000ms, 0821ms total)
T3320 020:023 JLINK_ReadMemU32(0xE0001004, 0x0001 Items, ...) -- CPU is running -- CPU_ReadMem(4 bytes @ 0xE0001004) - Data: 00 00 00 00  returns 0x01 (0001ms, 0822ms total)
T3320 020:026 JLINK_IsHalted()  returns FALSE (0000ms, 0822ms total)
T3320 020:127 JLINK_IsHalted()  returns FALSE (0001ms, 0823ms total)
T3320 020:228 JLINK_IsHalted()  returns FALSE (0001ms, 0823ms total)
T3320 020:329 JLINK_IsHalted()  returns FALSE (0001ms, 0823ms total)
T3320 020:431 JLINK_IsHalted()  returns FALSE (0001ms, 0823ms total)
T3320 020:533 JLINK_IsHalted()  returns FALSE (0001ms, 0823ms total)
T3320 020:634 JLINK_ReadMemU32(0xE0001004, 0x0001 Items, ...) -- CPU is running -- CPU_ReadMem(4 bytes @ 0xE0001004) - Data: 00 F1 01 00  returns 0x01 (0001ms, 0823ms total)
T3320 020:636 JLINK_IsHalted()  returns FALSE (0001ms, 0824ms total)
T3320 020:737 JLINK_IsHalted()  returns FALSE (0000ms, 0823ms total)
T3320 020:838 JLINK_IsHalted()  returns FALSE (0001ms, 0824ms total)
T3320 020:940 JLINK_IsHalted()  returns FALSE (0000ms, 0823ms total)
T3320 021:041 JLINK_IsHalted()  returns FALSE (0001ms, 0824ms total)
T3320 021:143 JLINK_IsHalted()  returns FALSE (0001ms, 0824ms total)
T3320 021:244 JLINK_ReadMemU32(0xE0001004, 0x0001 Items, ...) -- CPU is running -- CPU_ReadMem(4 bytes @ 0xE0001004) - Data: 00 00 00 1C  returns 0x01 (0001ms, 0824ms total)
T3320 021:246 JLINK_IsHalted()  returns FALSE (0001ms, 0825ms total)
T3320 021:347 JLINK_IsHalted()  returns FALSE (0001ms, 0825ms total)
T3320 021:448 JLINK_IsHalted()  returns FALSE (0001ms, 0825ms total)
T3320 021:550 JLINK_IsHalted()  returns FALSE (0001ms, 0825ms total)
T3320 021:651 JLINK_IsHalted()  returns FALSE (0000ms, 0824ms total)
T3320 021:752 JLINK_IsHalted()  returns FALSE (0001ms, 0825ms total)
T3320 021:853 JLINK_ReadMemU32(0xE0001004, 0x0001 Items, ...) -- CPU is running -- CPU_ReadMem(4 bytes @ 0xE0001004) - Data: 00 00 00 00  returns 0x01 (0002ms, 0826ms total)
T3320 021:856 JLINK_IsHalted()  returns FALSE (0001ms, 0827ms total)
T3320 021:957 JLINK_IsHalted()  returns FALSE (0001ms, 0827ms total)
T3320 022:058 JLINK_IsHalted()  returns FALSE (0001ms, 0827ms total)
T423C 022:159 JLINK_SetBPEx(Addr = 0x0800049E, Type = 0xFFFFFFF2) -- CPU is running -- CPU is running -- CPU_WriteMem(4 bytes @ 0xE0002000) -- CPU is running -- CPU_WriteMem(4 bytes @ 0xE0002008)  returns 0x00000002 (0001ms, 0827ms total)
T3320 022:160 JLINK_IsHalted()  returns FALSE (0002ms, 0829ms total)
T3320 022:263 JLINK_IsHalted()  returns FALSE (0001ms, 0828ms total)
T3320 022:365 JLINK_ReadMemU32(0xE0001004, 0x0001 Items, ...) -- CPU is running -- CPU_ReadMem(4 bytes @ 0xE0001004) - Data: 20 00 00 00  returns 0x01 (0001ms, 0828ms total)
T3320 022:367 JLINK_IsHalted()  returns FALSE (0001ms, 0829ms total)
T3320 022:469 JLINK_IsHalted()  returns FALSE (0001ms, 0829ms total)
T3320 022:570 JLINK_IsHalted()  returns FALSE (0001ms, 0829ms total)
T3320 022:672 JLINK_IsHalted()  returns FALSE (0001ms, 0829ms total)
T3320 022:773 JLINK_IsHalted()  returns FALSE (0000ms, 0828ms total)
T3320 022:875 JLINK_IsHalted()  returns FALSE (0001ms, 0829ms total)
T3320 022:976 JLINK_ReadMemU32(0xE0001004, 0x0001 Items, ...) -- CPU is running -- CPU_ReadMem(4 bytes @ 0xE0001004) - Data: 00 00 00 00  returns 0x01 (0002ms, 0830ms total)
T3320 022:983 JLINK_IsHalted()  returns FALSE (0000ms, 0830ms total)
T3320 023:084 JLINK_IsHalted()  returns FALSE (0001ms, 0831ms total)
T3320 023:186 JLINK_IsHalted()  returns FALSE (0001ms, 0831ms total)
T3320 023:287 JLINK_IsHalted()  returns FALSE (0001ms, 0831ms total)
T423C 023:367 JLINK_ClrBPEx(BPHandle = 0x00000002) -- CPU is running -- CPU is running -- CPU_WriteMem(4 bytes @ 0xE0002008) -- CPU is running -- CPU_WriteMem(4 bytes @ 0xE000200C) -- CPU is running -- CPU_WriteMem(4 bytes @ 0xE0002010) -- CPU is running -- CPU_WriteMem(4 bytes @ 0xE0002014) -- CPU is running -- CPU_WriteMem(4 bytes @ 0xE0002018) -- CPU is running -- CPU_WriteMem(4 bytes @ 0xE000201C)  returns 0x00 (0008ms, 0838ms total)
T3320 023:389 JLINK_IsHalted()  returns FALSE (0001ms, 0839ms total)
T3320 023:490 JLINK_ReadMemU32(0xE0001004, 0x0001 Items, ...) -- CPU is running -- CPU_ReadMem(4 bytes @ 0xE0001004) - Data: 00 00 00 00  returns 0x01 (0001ms, 0839ms total)
T3320 023:493 JLINK_IsHalted()  returns FALSE (0001ms, 0840ms total)
T3320 023:595 JLINK_IsHalted()  returns FALSE (0001ms, 0840ms total)
T3320 023:696 JLINK_IsHalted()  returns FALSE (0001ms, 0840ms total)
T3320 023:797 JLINK_IsHalted()  returns FALSE (0001ms, 0840ms total)
T3320 023:899 JLINK_IsHalted()  returns FALSE (0001ms, 0840ms total)
T3320 024:000 JLINK_IsHalted()  returns FALSE (0000ms, 0839ms total)
T423C 024:038 JLINK_ReadMem (0x0800049E, 0x0002 Bytes, ...) -- CPU is running -- CPU_ReadMem(2 bytes @ 0x0800049E) - Data: 00 00  returns 0x00 (0001ms, 0840ms total)
T423C 024:039 JLINK_ReadMem (0x080004A0, 0x0002 Bytes, ...) -- CPU is running -- CPU_ReadMem(2 bytes @ 0x080004A0) - Data: C0 01  returns 0x00 (0002ms, 0842ms total)
T3320 024:102 JLINK_ReadMemU32(0xE0001004, 0x0001 Items, ...) -- CPU is running -- CPU_ReadMem(4 bytes @ 0xE0001004) - Data: 00 00 00 00  returns 0x01 (0000ms, 0842ms total)
T3320 024:104 JLINK_IsHalted()  returns FALSE (0002ms, 0844ms total)
T3320 024:206 JLINK_IsHalted()  returns FALSE (0002ms, 0844ms total)
T3320 024:308 JLINK_IsHalted()  returns FALSE (0001ms, 0843ms total)
T3320 024:409 JLINK_IsHalted()  returns FALSE (0001ms, 0843ms total)
T3320 024:510 JLINK_IsHalted()  returns FALSE (0001ms, 0843ms total)
T3320 024:613 JLINK_IsHalted()  returns FALSE (0001ms, 0843ms total)
T3320 024:714 JLINK_ReadMemU32(0xE0001004, 0x0001 Items, ...) -- CPU is running -- CPU_ReadMem(4 bytes @ 0xE0001004) - Data: 00 00 00 00  returns 0x01 (0001ms, 0843ms total)
T3320 024:716 JLINK_IsHalted()  returns FALSE (0001ms, 0844ms total)
T3320 024:817 JLINK_IsHalted()  returns FALSE (0001ms, 0844ms total)
T3320 024:918 JLINK_IsHalted()  returns FALSE (0001ms, 0844ms total)
T3320 025:020 JLINK_IsHalted()  returns FALSE (0001ms, 0844ms total)
T3320 025:122 JLINK_IsHalted()  returns FALSE (0001ms, 0844ms total)
T3320 025:223 JLINK_ReadMemU32(0xE0001004, 0x0001 Items, ...) -- CPU is running -- CPU_ReadMem(4 bytes @ 0xE0001004) - Data: 00 00 00 00  returns 0x01 (0001ms, 0844ms total)
T3320 025:225 JLINK_IsHalted()  returns FALSE (0001ms, 0845ms total)
T423C 025:235 JLINK_SetBPEx(Addr = 0x0800045A, Type = 0xFFFFFFF2) -- CPU is running -- CPU is running -- CPU_WriteMem(4 bytes @ 0xE0002000) -- CPU is running -- CPU_WriteMem(4 bytes @ 0xE0002008)  returns 0x00000003 (0002ms, 0846ms total)
T3320 025:327 JLINK_IsHalted()  returns FALSE (0001ms, 0847ms total)
T3320 025:428 JLINK_IsHalted()  returns FALSE (0000ms, 0846ms total)
T3320 025:529 JLINK_IsHalted()  returns FALSE (0002ms, 0848ms total)
T3320 025:632 JLINK_IsHalted()  returns FALSE (0001ms, 0847ms total)
T3320 025:734 JLINK_IsHalted()  returns TRUE (0004ms, 0850ms total)
T3320 025:738 JLINK_Halt()  returns 0x00 (0000ms, 0846ms total)
T3320 025:738 JLINK_IsHalted()  returns TRUE (0000ms, 0846ms total)
T3320 025:738 JLINK_IsHalted()  returns TRUE (0000ms, 0846ms total)
T3320 025:738 JLINK_IsHalted()  returns TRUE (0000ms, 0846ms total)
T3320 025:738 JLINK_ReadReg(R15 (PC))  returns 0x0800045A (0000ms, 0846ms total)
T3320 025:738 JLINK_ReadReg(XPSR)  returns 0x21000000 (0000ms, 0846ms total)
T3320 025:738 JLINK_ClrBPEx(BPHandle = 0x00000003)  returns 0x00 (0000ms, 0846ms total)
T3320 025:738 JLINK_ReadMemU32(0xE000ED30, 0x0001 Items, ...) -- CPU_ReadMem(4 bytes @ 0xE000ED30) - Data: 02 00 00 00  returns 0x01 (0001ms, 0847ms total)
T3320 025:739 JLINK_ReadMemU32(0xE0001028, 0x0001 Items, ...) -- CPU_ReadMem(4 bytes @ 0xE0001028) - Data: 00 00 00 00  returns 0x01 (0002ms, 0849ms total)
T3320 025:741 JLINK_ReadMemU32(0xE0001038, 0x0001 Items, ...) -- CPU_ReadMem(4 bytes @ 0xE0001038) - Data: 00 02 00 00  returns 0x01 (0001ms, 0850ms total)
T3320 025:742 JLINK_ReadMemU32(0xE0001048, 0x0001 Items, ...) -- CPU_ReadMem(4 bytes @ 0xE0001048) - Data: 00 00 00 00  returns 0x01 (0001ms, 0851ms total)
T3320 025:743 JLINK_ReadMemU32(0xE0001058, 0x0001 Items, ...) -- CPU_ReadMem(4 bytes @ 0xE0001058) - Data: 00 00 00 00  returns 0x01 (0001ms, 0852ms total)
T3320 025:744 JLINK_ReadReg(R0)  returns 0x200007C0 (0000ms, 0852ms total)
T3320 025:744 JLINK_ReadReg(R1)  returns 0x200009C0 (0000ms, 0852ms total)
T3320 025:744 JLINK_ReadReg(R2)  returns 0x200009C0 (0000ms, 0852ms total)
T3320 025:744 JLINK_ReadReg(R3)  returns 0x200009C0 (0000ms, 0852ms total)
T3320 025:744 JLINK_ReadReg(R4)  returns 0x00000000 (0000ms, 0852ms total)
T3320 025:744 JLINK_ReadReg(R5)  returns 0x20000760 (0000ms, 0852ms total)
T3320 025:744 JLINK_ReadReg(R6)  returns 0x00000000 (0000ms, 0852ms total)
T3320 025:744 JLINK_ReadReg(R7)  returns 0x00000000 (0000ms, 0852ms total)
T3320 025:744 JLINK_ReadReg(R8)  returns 0x00000000 (0000ms, 0852ms total)
T3320 025:744 JLINK_ReadReg(R9)  returns 0x00000000 (0000ms, 0852ms total)
T3320 025:744 JLINK_ReadReg(R10)  returns 0x080030F4 (0000ms, 0852ms total)
T3320 025:744 JLINK_ReadReg(R11)  returns 0x00000000 (0000ms, 0852ms total)
T3320 025:744 JLINK_ReadReg(R12)  returns 0x200007A0 (0000ms, 0852ms total)
T3320 025:744 JLINK_ReadReg(R13 (SP))  returns 0x20000DB8 (0000ms, 0852ms total)
T3320 025:744 JLINK_ReadReg(R14)  returns 0x0800022B (0000ms, 0852ms total)
T3320 025:744 JLINK_ReadReg(R15 (PC))  returns 0x0800045A (0000ms, 0852ms total)
T3320 025:744 JLINK_ReadReg(XPSR)  returns 0x21000000 (0000ms, 0852ms total)
T3320 025:744 JLINK_ReadReg(MSP)  returns 0x20000DB8 (0000ms, 0852ms total)
T3320 025:744 JLINK_ReadReg(PSP)  returns 0x00000000 (0000ms, 0852ms total)
T3320 025:744 JLINK_ReadReg(CFBP)  returns 0x04000000 (0000ms, 0852ms total)
T3320 025:744 JLINK_ReadReg(FPSCR)  returns 0x03000000 (0005ms, 0857ms total)
T3320 025:749 JLINK_ReadReg(FPS0)  returns 0x00000000 (0000ms, 0857ms total)
T3320 025:749 JLINK_ReadReg(FPS1)  returns 0x00000000 (0000ms, 0857ms total)
T3320 025:749 JLINK_ReadReg(FPS2)  returns 0x00000000 (0000ms, 0857ms total)
T3320 025:749 JLINK_ReadReg(FPS3)  returns 0x00000000 (0000ms, 0857ms total)
T3320 025:749 JLINK_ReadReg(FPS4)  returns 0x00000000 (0000ms, 0857ms total)
T3320 025:749 JLINK_ReadReg(FPS5)  returns 0x00000000 (0000ms, 0857ms total)
T3320 025:749 JLINK_ReadReg(FPS6)  returns 0x00000000 (0000ms, 0857ms total)
T3320 025:749 JLINK_ReadReg(FPS7)  returns 0x00000000 (0000ms, 0857ms total)
T3320 025:749 JLINK_ReadReg(FPS8)  returns 0x00000000 (0000ms, 0857ms total)
T3320 025:749 JLINK_ReadReg(FPS9)  returns 0x00000000 (0000ms, 0857ms total)
T3320 025:749 JLINK_ReadReg(FPS10)  returns 0x00000000 (0000ms, 0857ms total)
T3320 025:749 JLINK_ReadReg(FPS11)  returns 0x00000000 (0000ms, 0857ms total)
T3320 025:749 JLINK_ReadReg(FPS12)  returns 0x00000000 (0000ms, 0857ms total)
T3320 025:749 JLINK_ReadReg(FPS13)  returns 0x00000000 (0000ms, 0857ms total)
T3320 025:749 JLINK_ReadReg(FPS14)  returns 0x00000000 (0000ms, 0857ms total)
T3320 025:749 JLINK_ReadReg(FPS15)  returns 0x00000000 (0000ms, 0857ms total)
T3320 025:749 JLINK_ReadReg(FPS16)  returns 0x00000000 (0000ms, 0857ms total)
T3320 025:749 JLINK_ReadReg(FPS17)  returns 0x00000000 (0000ms, 0857ms total)
T3320 025:749 JLINK_ReadReg(FPS18)  returns 0x00000000 (0000ms, 0857ms total)
T3320 025:749 JLINK_ReadReg(FPS19)  returns 0x00000000 (0000ms, 0857ms total)
T3320 025:749 JLINK_ReadReg(FPS20)  returns 0x00000000 (0000ms, 0857ms total)
T3320 025:749 JLINK_ReadReg(FPS21)  returns 0x00000000 (0000ms, 0857ms total)
T3320 025:749 JLINK_ReadReg(FPS22)  returns 0x00000000 (0000ms, 0857ms total)
T3320 025:749 JLINK_ReadReg(FPS23)  returns 0x00000000 (0000ms, 0857ms total)
T3320 025:749 JLINK_ReadReg(FPS24)  returns 0x00000000 (0000ms, 0857ms total)
T3320 025:749 JLINK_ReadReg(FPS25)  returns 0x00000000 (0000ms, 0857ms total)
T3320 025:749 JLINK_ReadReg(FPS26)  returns 0x00000000 (0000ms, 0857ms total)
T3320 025:749 JLINK_ReadReg(FPS27)  returns 0x00000000 (0000ms, 0857ms total)
T3320 025:749 JLINK_ReadReg(FPS28)  returns 0x00000000 (0000ms, 0857ms total)
T3320 025:749 JLINK_ReadReg(FPS29)  returns 0x00000000 (0000ms, 0857ms total)
T3320 025:749 JLINK_ReadReg(FPS30)  returns 0x00000000 (0000ms, 0857ms total)
T3320 025:749 JLINK_ReadReg(FPS31)  returns 0x00000000 (0000ms, 0857ms total)
T423C 025:752 JLINK_ReadMem (0x0800045A, 0x0002 Bytes, ...) -- CPU_ReadMem(64 bytes @ 0x08000440) -- Updating C cache (64 bytes @ 0x08000440) -- Read from C cache (2 bytes @ 0x0800045A) - Data: 4F F4  returns 0x00 (0002ms, 0859ms total)
T423C 025:754 JLINK_ReadMem (0x0800045C, 0x003C Bytes, ...) -- CPU_ReadMem(64 bytes @ 0x08000480) -- Updating C cache (64 bytes @ 0x08000480) -- Read from C cache (60 bytes @ 0x0800045C) - Data: A0 60 00 F0 FD FF 4F F4 E1 30 00 F0 FF F9 4F F4 ...  returns 0x00 (0002ms, 0861ms total)
T3320 031:119 JLINK_SetBPEx(Addr = 0x08000462, Type = 0xFFFFFFF2)  returns 0x00000004 (0000ms, 0861ms total)
T3320 031:119 JLINK_Go() -- CPU_WriteMem(4 bytes @ 0xE0002000) -- CPU_ReadMem(4 bytes @ 0xE0001000) -- CPU_WriteMem(4 bytes @ 0xE0002008) (0003ms, 0864ms total)
T3320 031:223 JLINK_IsHalted()  returns FALSE (0001ms, 0865ms total)
T3320 031:324 JLINK_IsHalted()  returns TRUE (0004ms, 0868ms total)
T3320 031:328 JLINK_Halt()  returns 0x00 (0000ms, 0864ms total)
T3320 031:328 JLINK_IsHalted()  returns TRUE (0000ms, 0864ms total)
T3320 031:328 JLINK_IsHalted()  returns TRUE (0000ms, 0864ms total)
T3320 031:328 JLINK_IsHalted()  returns TRUE (0000ms, 0864ms total)
T3320 031:328 JLINK_ReadReg(R15 (PC))  returns 0x08000462 (0000ms, 0864ms total)
T3320 031:328 JLINK_ReadReg(XPSR)  returns 0x21000000 (0000ms, 0864ms total)
T3320 031:328 JLINK_ClrBPEx(BPHandle = 0x00000004)  returns 0x00 (0000ms, 0864ms total)
T3320 031:328 JLINK_ReadMemU32(0xE000ED30, 0x0001 Items, ...) -- CPU_ReadMem(4 bytes @ 0xE000ED30) - Data: 02 00 00 00  returns 0x01 (0001ms, 0865ms total)
T3320 031:329 JLINK_ReadMemU32(0xE0001028, 0x0001 Items, ...) -- CPU_ReadMem(4 bytes @ 0xE0001028) - Data: 00 00 00 00  returns 0x01 (0001ms, 0866ms total)
T3320 031:330 JLINK_ReadMemU32(0xE0001038, 0x0001 Items, ...) -- CPU_ReadMem(4 bytes @ 0xE0001038) - Data: 00 02 00 00  returns 0x01 (0001ms, 0867ms total)
T3320 031:331 JLINK_ReadMemU32(0xE0001048, 0x0001 Items, ...) -- CPU_ReadMem(4 bytes @ 0xE0001048) - Data: 00 00 00 00  returns 0x01 (0001ms, 0868ms total)
T3320 031:332 JLINK_ReadMemU32(0xE0001058, 0x0001 Items, ...) -- CPU_ReadMem(4 bytes @ 0xE0001058) - Data: 00 00 00 00  returns 0x01 (0001ms, 0869ms total)
T3320 031:333 JLINK_ReadReg(R0)  returns 0x00000500 (0000ms, 0869ms total)
T3320 031:333 JLINK_ReadReg(R1)  returns 0x05FA0500 (0000ms, 0869ms total)
T3320 031:333 JLINK_ReadReg(R2)  returns 0xE000ED0C (0000ms, 0869ms total)
T3320 031:333 JLINK_ReadReg(R3)  returns 0x200009C0 (0000ms, 0869ms total)
T3320 031:333 JLINK_ReadReg(R4)  returns 0x00000000 (0000ms, 0869ms total)
T3320 031:333 JLINK_ReadReg(R5)  returns 0x20000760 (0000ms, 0869ms total)
T3320 031:333 JLINK_ReadReg(R6)  returns 0x00000000 (0000ms, 0869ms total)
T3320 031:333 JLINK_ReadReg(R7)  returns 0x00000000 (0000ms, 0869ms total)
T3320 031:333 JLINK_ReadReg(R8)  returns 0x00000000 (0000ms, 0869ms total)
T3320 031:333 JLINK_ReadReg(R9)  returns 0x00000000 (0000ms, 0869ms total)
T3320 031:333 JLINK_ReadReg(R10)  returns 0x080030F4 (0000ms, 0869ms total)
T3320 031:333 JLINK_ReadReg(R11)  returns 0x00000000 (0000ms, 0869ms total)
T3320 031:333 JLINK_ReadReg(R12)  returns 0x200007A0 (0000ms, 0869ms total)
T3320 031:333 JLINK_ReadReg(R13 (SP))  returns 0x20000DB8 (0000ms, 0869ms total)
T3320 031:333 JLINK_ReadReg(R14)  returns 0x08000463 (0000ms, 0869ms total)
T3320 031:333 JLINK_ReadReg(R15 (PC))  returns 0x08000462 (0000ms, 0869ms total)
T3320 031:333 JLINK_ReadReg(XPSR)  returns 0x21000000 (0000ms, 0869ms total)
T3320 031:333 JLINK_ReadReg(MSP)  returns 0x20000DB8 (0000ms, 0869ms total)
T3320 031:333 JLINK_ReadReg(PSP)  returns 0x00000000 (0000ms, 0869ms total)
T3320 031:333 JLINK_ReadReg(CFBP)  returns 0x04000000 (0000ms, 0869ms total)
T3320 031:333 JLINK_ReadReg(FPSCR)  returns 0x03000000 (0006ms, 0875ms total)
T3320 031:339 JLINK_ReadReg(FPS0)  returns 0x00000000 (0000ms, 0875ms total)
T3320 031:339 JLINK_ReadReg(FPS1)  returns 0x00000000 (0000ms, 0875ms total)
T3320 031:339 JLINK_ReadReg(FPS2)  returns 0x00000000 (0000ms, 0875ms total)
T3320 031:339 JLINK_ReadReg(FPS3)  returns 0x00000000 (0000ms, 0875ms total)
T3320 031:339 JLINK_ReadReg(FPS4)  returns 0x00000000 (0000ms, 0875ms total)
T3320 031:339 JLINK_ReadReg(FPS5)  returns 0x00000000 (0000ms, 0875ms total)
T3320 031:339 JLINK_ReadReg(FPS6)  returns 0x00000000 (0000ms, 0875ms total)
T3320 031:339 JLINK_ReadReg(FPS7)  returns 0x00000000 (0000ms, 0875ms total)
T3320 031:339 JLINK_ReadReg(FPS8)  returns 0x00000000 (0000ms, 0875ms total)
T3320 031:339 JLINK_ReadReg(FPS9)  returns 0x00000000 (0000ms, 0875ms total)
T3320 031:339 JLINK_ReadReg(FPS10)  returns 0x00000000 (0000ms, 0875ms total)
T3320 031:339 JLINK_ReadReg(FPS11)  returns 0x00000000 (0000ms, 0875ms total)
T3320 031:339 JLINK_ReadReg(FPS12)  returns 0x00000000 (0000ms, 0875ms total)
T3320 031:339 JLINK_ReadReg(FPS13)  returns 0x00000000 (0000ms, 0875ms total)
T3320 031:339 JLINK_ReadReg(FPS14)  returns 0x00000000 (0000ms, 0875ms total)
T3320 031:339 JLINK_ReadReg(FPS15)  returns 0x00000000 (0000ms, 0875ms total)
T3320 031:339 JLINK_ReadReg(FPS16)  returns 0x00000000 (0000ms, 0875ms total)
T3320 031:339 JLINK_ReadReg(FPS17)  returns 0x00000000 (0000ms, 0875ms total)
T3320 031:339 JLINK_ReadReg(FPS18)  returns 0x00000000 (0000ms, 0875ms total)
T3320 031:339 JLINK_ReadReg(FPS19)  returns 0x00000000 (0000ms, 0875ms total)
T3320 031:339 JLINK_ReadReg(FPS20)  returns 0x00000000 (0000ms, 0875ms total)
T3320 031:339 JLINK_ReadReg(FPS21)  returns 0x00000000 (0000ms, 0875ms total)
T3320 031:339 JLINK_ReadReg(FPS22)  returns 0x00000000 (0000ms, 0875ms total)
T3320 031:339 JLINK_ReadReg(FPS23)  returns 0x00000000 (0000ms, 0875ms total)
T3320 031:339 JLINK_ReadReg(FPS24)  returns 0x00000000 (0000ms, 0875ms total)
T3320 031:339 JLINK_ReadReg(FPS25)  returns 0x00000000 (0000ms, 0875ms total)
T3320 031:339 JLINK_ReadReg(FPS26)  returns 0x00000000 (0000ms, 0875ms total)
T3320 031:339 JLINK_ReadReg(FPS27)  returns 0x00000000 (0000ms, 0875ms total)
T3320 031:339 JLINK_ReadReg(FPS28)  returns 0x00000000 (0000ms, 0875ms total)
T3320 031:339 JLINK_ReadReg(FPS29)  returns 0x00000000 (0000ms, 0875ms total)
T3320 031:339 JLINK_ReadReg(FPS30)  returns 0x00000000 (0000ms, 0875ms total)
T3320 031:339 JLINK_ReadReg(FPS31)  returns 0x00000000 (0000ms, 0875ms total)
T423C 031:342 JLINK_ReadMem (0x08000462, 0x0002 Bytes, ...) -- CPU_ReadMem(64 bytes @ 0x08000440) -- Updating C cache (64 bytes @ 0x08000440) -- Read from C cache (2 bytes @ 0x08000462) - Data: 4F F4  returns 0x00 (0002ms, 0877ms total)
T423C 031:344 JLINK_ReadMem (0x08000464, 0x003C Bytes, ...) -- CPU_ReadMem(64 bytes @ 0x08000480) -- Updating C cache (64 bytes @ 0x08000480) -- Read from C cache (60 bytes @ 0x08000464) - Data: E1 30 00 F0 FF F9 4F F4 E1 30 00 F0 E8 FA 4F F4 ...  returns 0x00 (0001ms, 0878ms total)
T3320 049:545 JLINK_Step() -- Read from C cache (2 bytes @ 0x08000462) -- CPU_ReadMem(4 bytes @ 0xE000ED18) -- CPU_WriteMem(4 bytes @ 0xE000ED18) -- CPU_ReadMem(4 bytes @ 0xE000ED18) -- CPU_WriteMem(4 bytes @ 0xE000ED18) -- CPU_ReadMem(4 bytes @ 0xE0001004) -- Read from C cache (2 bytes @ 0x08000464) -- Simulated  returns 0x00 (0005ms, 0883ms total)
T3320 049:550 JLINK_ReadReg(R15 (PC))  returns 0x08000466 (0000ms, 0883ms total)
T3320 049:550 JLINK_ReadReg(XPSR)  returns 0x21000000 (0000ms, 0883ms total)
T3320 049:550 JLINK_SetBPEx(Addr = 0x08000462, Type = 0xFFFFFFF2)  returns 0x00000005 (0000ms, 0883ms total)
T3320 049:550 JLINK_SetBPEx(Addr = 0x08000492, Type = 0xFFFFFFF2)  returns 0x00000006 (0000ms, 0883ms total)
T3320 049:550 JLINK_Go() -- CPU_WriteMem(4 bytes @ 0xE0002000) -- CPU_WriteMem(4 bytes @ 0xE0002000) -- CPU_ReadMem(4 bytes @ 0xE0001000) -- CPU_WriteMem(4 bytes @ 0xE000200C) -- CPU_WriteMem(4 bytes @ 0xE0001004) (0005ms, 0888ms total)
T3320 049:657 JLINK_IsHalted()  returns TRUE (0004ms, 0892ms total)
T3320 049:661 JLINK_Halt()  returns 0x00 (0000ms, 0888ms total)
T3320 049:661 JLINK_IsHalted()  returns TRUE (0000ms, 0888ms total)
T3320 049:661 JLINK_IsHalted()  returns TRUE (0000ms, 0888ms total)
T3320 049:661 JLINK_IsHalted()  returns TRUE (0000ms, 0888ms total)
T3320 049:661 JLINK_ReadReg(R15 (PC))  returns 0x08000492 (0000ms, 0888ms total)
T3320 049:661 JLINK_ReadReg(XPSR)  returns 0x01000000 (0000ms, 0888ms total)
T3320 049:661 JLINK_ClrBPEx(BPHandle = 0x00000005)  returns 0x00 (0000ms, 0888ms total)
T3320 049:661 JLINK_ClrBPEx(BPHandle = 0x00000006)  returns 0x00 (0000ms, 0888ms total)
T3320 049:661 JLINK_ReadMemU32(0xE000ED30, 0x0001 Items, ...) -- CPU_ReadMem(4 bytes @ 0xE000ED30) - Data: 03 00 00 00  returns 0x01 (0001ms, 0889ms total)
T3320 049:662 JLINK_ReadMemU32(0xE0001028, 0x0001 Items, ...) -- CPU_ReadMem(4 bytes @ 0xE0001028) - Data: 00 00 00 00  returns 0x01 (0000ms, 0889ms total)
T3320 049:662 JLINK_ReadMemU32(0xE0001038, 0x0001 Items, ...) -- CPU_ReadMem(4 bytes @ 0xE0001038) - Data: 00 02 00 00  returns 0x01 (0002ms, 0891ms total)
T3320 049:664 JLINK_ReadMemU32(0xE0001048, 0x0001 Items, ...) -- CPU_ReadMem(4 bytes @ 0xE0001048) - Data: 00 00 00 00  returns 0x01 (0001ms, 0892ms total)
T3320 049:665 JLINK_ReadMemU32(0xE0001058, 0x0001 Items, ...) -- CPU_ReadMem(4 bytes @ 0xE0001058) - Data: 00 00 00 00  returns 0x01 (0001ms, 0893ms total)
T3320 049:666 JLINK_ReadReg(R0)  returns 0x40011400 (0000ms, 0893ms total)
T3320 049:666 JLINK_ReadReg(R1)  returns 0x00000001 (0000ms, 0893ms total)
T3320 049:666 JLINK_ReadReg(R2)  returns 0x0000201C (0000ms, 0893ms total)
T3320 049:666 JLINK_ReadReg(R3)  returns 0x40011400 (0000ms, 0893ms total)
T3320 049:666 JLINK_ReadReg(R4)  returns 0x00000000 (0000ms, 0893ms total)
T3320 049:666 JLINK_ReadReg(R5)  returns 0x20000760 (0000ms, 0893ms total)
T3320 049:666 JLINK_ReadReg(R6)  returns 0x00000000 (0000ms, 0893ms total)
T3320 049:666 JLINK_ReadReg(R7)  returns 0x00000000 (0000ms, 0893ms total)
T3320 049:666 JLINK_ReadReg(R8)  returns 0x00000000 (0000ms, 0893ms total)
T3320 049:666 JLINK_ReadReg(R9)  returns 0x00000000 (0000ms, 0893ms total)
T3320 049:666 JLINK_ReadReg(R10)  returns 0x080030F4 (0000ms, 0893ms total)
T3320 049:666 JLINK_ReadReg(R11)  returns 0x00000000 (0000ms, 0893ms total)
T3320 049:666 JLINK_ReadReg(R12)  returns 0x00000150 (0000ms, 0893ms total)
T3320 049:666 JLINK_ReadReg(R13 (SP))  returns 0x20000DB8 (0000ms, 0893ms total)
T3320 049:666 JLINK_ReadReg(R14)  returns 0x080013F5 (0000ms, 0893ms total)
T3320 049:666 JLINK_ReadReg(R15 (PC))  returns 0x08000492 (0000ms, 0893ms total)
T3320 049:666 JLINK_ReadReg(XPSR)  returns 0x01000000 (0000ms, 0893ms total)
T3320 049:666 JLINK_ReadReg(MSP)  returns 0x20000DB8 (0000ms, 0893ms total)
T3320 049:666 JLINK_ReadReg(PSP)  returns 0x00000000 (0000ms, 0893ms total)
T3320 049:666 JLINK_ReadReg(CFBP)  returns 0x04000000 (0000ms, 0893ms total)
